# Version 1.00
#
freq[Hz];re:Trc2_S12;im:Trc2_S12;re:Trc3_S12;im:Trc3_S12;
1.000000000000000E+08;4.546870985733883E-02;9.747279214761707E-02;4.546870985733883E-02;9.747279214761707E-02;
1.122500000000000E+08;5.667532097957696E-02;1.065592131748421E-01;5.667532097957696E-02;1.065592131748421E-01;
1.245000000000000E+08;6.890994286538651E-02;1.142887330555765E-01;6.890994286538651E-02;1.142887330555765E-01;
1.367500000000000E+08;8.198114967079746E-02;1.211430120163723E-01;8.198114967079746E-02;1.211430120163723E-01;
1.490000000000000E+08;9.599009624078007E-02;1.267657548541148E-01;9.599009624078007E-02;1.267657548541148E-01;
1.612500000000000E+08;1.106496136247321E-01;1.312510389773789E-01;1.106496136247321E-01;1.312510389773789E-01;
1.735000000000000E+08;1.260531497043560E-01;1.343422566376903E-01;1.260531497043560E-01;1.343422566376903E-01;
1.857500000000000E+08;1.420218528868418E-01;1.360741594946266E-01;1.420218528868418E-01;1.360741594946266E-01;
1.980000000000000E+08;1.583958612628120E-01;1.365257997453466E-01;1.583958612628120E-01;1.365257997453466E-01;
2.102500000000000E+08;1.749042266111425E-01;1.355231325456280E-01;1.749042266111425E-01;1.355231325456280E-01;
2.225000000000000E+08;1.918085671754270E-01;1.331779800813531E-01;1.918085671754270E-01;1.331779800813531E-01;
2.347500000000000E+08;2.086458176542948E-01;1.293006886783125E-01;2.086458176542948E-01;1.293006886783125E-01;
2.470000000000000E+08;2.256352121999276E-01;1.239668262760856E-01;2.256352121999276E-01;1.239668262760856E-01;
2.592500000000000E+08;2.424415367947828E-01;1.171180451978212E-01;2.424415367947828E-01;1.171180451978212E-01;
2.715000000000000E+08;2.589624830853544E-01;1.089108084982718E-01;2.589624830853544E-01;1.089108084982718E-01;
2.837500000000000E+08;2.751311119605176E-01;9.917981201087517E-02;2.751311119605176E-01;9.917981201087517E-02;
2.960000000000000E+08;2.909065431462899E-01;8.792661066984800E-02;2.909065431462899E-01;8.792661066984800E-02;
3.082500000000000E+08;3.061194023432816E-01;7.538794558823941E-02;3.061194023432816E-01;7.538794558823941E-02;
3.205000000000000E+08;3.204801806463479E-01;6.154107107141406E-02;3.204801806463479E-01;6.154107107141406E-02;
3.327500000000000E+08;3.343132228246599E-01;4.625775197989637E-02;3.343132228246599E-01;4.625775197989637E-02;
3.450000000000000E+08;3.469305870159090E-01;2.989103084670992E-02;3.469305870159090E-01;2.989103084670992E-02;
3.572500000000000E+08;3.589486075095565E-01;1.220482437911066E-02;3.589486075095565E-01;1.220482437911066E-02;
3.695000000000000E+08;3.695031708869638E-01;-6.632941235990756E-03;3.695031708869638E-01;-6.632941235990756E-03;
3.817500000000000E+08;3.791682267204394E-01;-2.622296040812202E-02;3.791682267204394E-01;-2.622296040812202E-02;
3.940000000000000E+08;3.875337052300199E-01;-4.698450249389251E-02;3.875337052300199E-01;-4.698450249389251E-02;
4.062500000000000E+08;3.946784998282516E-01;-6.874745391444879E-02;3.946784998282516E-01;-6.874745391444879E-02;
4.185000000000000E+08;4.005830377743460E-01;-9.108531706512582E-02;4.005830377743460E-01;-9.108531706512582E-02;
4.307500000000000E+08;4.047878581459526E-01;-1.145323327396564E-01;4.047878581459526E-01;-1.145323327396564E-01;
4.430000000000000E+08;4.075716495100888E-01;-1.380267527451093E-01;4.075716495100888E-01;-1.380267527451093E-01;
4.552500000000000E+08;4.086220138964121E-01;-1.622945160589477E-01;4.086220138964121E-01;-1.622945160589477E-01;
4.675000000000000E+08;4.082166867741122E-01;-1.869406657823283E-01;4.082166867741122E-01;-1.869406657823283E-01;
4.797500000000000E+08;4.063768406187282E-01;-2.117569819080863E-01;4.063768406187282E-01;-2.117569819080863E-01;
4.920000000000000E+08;4.028339163751053E-01;-2.367879360743235E-01;4.028339163751053E-01;-2.367879360743235E-01;
5.042500000000000E+08;3.979513040079156E-01;-2.619932571099891E-01;3.979513040079156E-01;-2.619932571099891E-01;
5.165000000000000E+08;3.911501579713157E-01;-2.870894812496245E-01;3.911501579713157E-01;-2.870894812496245E-01;
5.287500000000000E+08;3.828265568654849E-01;-3.121532294748063E-01;3.828265568654849E-01;-3.121532294748063E-01;
5.410000000000000E+08;3.724717612732988E-01;-3.369668153636003E-01;3.724717612732988E-01;-3.369668153636003E-01;
5.532500000000000E+08;3.605729609221566E-01;-3.612779233963031E-01;3.605729609221566E-01;-3.612779233963031E-01;
5.655000000000000E+08;3.470947281573231E-01;-3.852279979359943E-01;3.470947281573231E-01;-3.852279979359943E-01;
5.777500000000000E+08;3.320184649359777E-01;-4.080147652108664E-01;3.320184649359777E-01;-4.080147652108664E-01;
5.900000000000000E+08;3.155911955460449E-01;-4.305474518660302E-01;3.155911955460449E-01;-4.305474518660302E-01;
6.022500000000000E+08;2.979112071688955E-01;-4.522288660642060E-01;2.979112071688955E-01;-4.522288660642060E-01;
6.145000000000000E+08;2.783230308151647E-01;-4.732977708952307E-01;2.783230308151647E-01;-4.732977708952307E-01;
6.267500000000000E+08;2.573528478361081E-01;-4.933439291137232E-01;2.573528478361081E-01;-4.933439291137232E-01;
6.390000000000000E+08;2.351654989847118E-01;-5.121062826143135E-01;2.351654989847118E-01;-5.121062826143135E-01;
6.512500000000000E+08;2.115102913050149E-01;-5.296610613614777E-01;2.115102913050149E-01;-5.296610613614777E-01;
6.635000000000000E+08;1.867638898314380E-01;-5.458490859490444E-01;1.867638898314380E-01;-5.458490859490444E-01;
6.757500000000000E+08;1.609027215151863E-01;-5.606581230320812E-01;1.609027215151863E-01;-5.606581230320812E-01;
6.880000000000000E+08;1.343713201297235E-01;-5.741468832313833E-01;1.343713201297235E-01;-5.741468832313833E-01;
7.002500000000000E+08;1.069045525989561E-01;-5.862976907934843E-01;1.069045525989561E-01;-5.862976907934843E-01;
7.125000000000000E+08;7.833035068450056E-02;-5.970790967050724E-01;7.833035068450056E-02;-5.970790967050724E-01;
7.247500000000000E+08;4.878796586057672E-02;-6.062639645776990E-01;4.878796586057672E-02;-6.062639645776990E-01;
7.370000000000000E+08;1.832765084122916E-02;-6.137765795640246E-01;1.832765084122916E-02;-6.137765795640246E-01;
7.492500000000000E+08;-1.252247497058291E-02;-6.190972869887452E-01;-1.252247497058291E-02;-6.190972869887452E-01;
7.615000000000000E+08;-4.337313612417466E-02;-6.229515232398701E-01;-4.337313612417466E-02;-6.229515232398701E-01;
7.737500000000000E+08;-7.440801340683177E-02;-6.252194176997238E-01;-7.440801340683177E-02;-6.252194176997238E-01;
7.860000000000000E+08;-1.057243682784498E-01;-6.258674809768845E-01;-1.057243682784498E-01;-6.258674809768845E-01;
7.982500000000000E+08;-1.375961160167033E-01;-6.251551856161577E-01;-1.375961160167033E-01;-6.251551856161577E-01;
8.105000000000000E+08;-1.697560930315308E-01;-6.225220612318869E-01;-1.697560930315308E-01;-6.225220612318869E-01;
8.227500000000000E+08;-2.021373638783354E-01;-6.178158809119204E-01;-2.021373638783354E-01;-6.178158809119204E-01;
8.350000000000000E+08;-2.340745190357160E-01;-6.110333131691776E-01;-2.340745190357160E-01;-6.110333131691776E-01;
8.472500000000000E+08;-2.653296898284880E-01;-6.025229470275392E-01;-2.653296898284880E-01;-6.025229470275392E-01;
8.595000000000000E+08;-2.962539855623230E-01;-5.925625970692078E-01;-2.962539855623230E-01;-5.925625970692078E-01;
8.717500000000000E+08;-3.266071053230007E-01;-5.811935431636119E-01;-3.266071053230007E-01;-5.811935431636119E-01;
8.840000000000000E+08;-3.568920085890833E-01;-5.681854928307583E-01;-3.568920085890833E-01;-5.681854928307583E-01;
8.962500000000000E+08;-3.864792370914723E-01;-5.535762052427788E-01;-3.864792370914723E-01;-5.535762052427788E-01;
9.085000000000000E+08;-4.157749579458332E-01;-5.371460236368730E-01;-4.157749579458332E-01;-5.371460236368730E-01;
9.207500000000000E+08;-4.440417203615568E-01;-5.189864149424324E-01;-4.440417203615568E-01;-5.189864149424324E-01;
9.330000000000000E+08;-4.711653741791512E-01;-4.990798998154242E-01;-4.711653741791512E-01;-4.990798998154242E-01;
9.452500000000000E+08;-4.972265544154987E-01;-4.776151641606474E-01;-4.972265544154987E-01;-4.776151641606474E-01;
9.575000000000000E+08;-5.223081225250099E-01;-4.549454747611451E-01;-5.223081225250099E-01;-4.549454747611451E-01;
9.697500000000000E+08;-5.458426427704454E-01;-4.314861877558944E-01;-5.458426427704454E-01;-4.314861877558944E-01;
9.820000000000000E+08;-5.685076017897805E-01;-4.065058998196892E-01;-5.685076017897805E-01;-4.065058998196892E-01;
9.942500000000000E+08;-5.902901184855852E-01;-3.806269318767459E-01;-5.902901184855852E-01;-3.806269318767459E-01;
1.006500000000000E+09;-6.109298444957024E-01;-3.528387759053473E-01;-6.109298444957024E-01;-3.528387759053473E-01;
1.018750000000000E+09;-6.298589703143357E-01;-3.240792455960979E-01;-6.298589703143357E-01;-3.240792455960979E-01;
1.031000000000000E+09;-6.472267587140665E-01;-2.941439864738901E-01;-6.472267587140665E-01;-2.941439864738901E-01;
1.043250000000000E+09;-6.628233384105324E-01;-2.633593805259563E-01;-6.628233384105324E-01;-2.633593805259563E-01;
1.055500000000000E+09;-6.771009244713099E-01;-2.321703195977921E-01;-6.771009244713099E-01;-2.321703195977921E-01;
1.067750000000000E+09;-6.897614691331796E-01;-2.000011094966817E-01;-6.897614691331796E-01;-2.000011094966817E-01;
1.080000000000000E+09;-7.007696973617786E-01;-1.670562205858608E-01;-7.007696973617786E-01;-1.670562205858608E-01;
1.092250000000000E+09;-7.102308033352011E-01;-1.336923864515956E-01;-7.102308033352011E-01;-1.336923864515956E-01;
1.104500000000000E+09;-7.180406220082350E-01;-9.991108631243176E-02;-7.180406220082350E-01;-9.991108631243176E-02;
1.116750000000000E+09;-7.241812680443489E-01;-6.554139402692405E-02;-7.241812680443489E-01;-6.554139402692405E-02;
1.129000000000000E+09;-7.285564200761927E-01;-3.064837737818168E-02;-7.285564200761927E-01;-3.064837737818168E-02;
1.141250000000000E+09;-7.314885472966012E-01;4.388989008204877E-03;-7.314885472966012E-01;4.388989008204877E-03;
1.153500000000000E+09;-7.323534913021370E-01;3.974001787245115E-02;-7.323534913021370E-01;3.974001787245115E-02;
1.165750000000000E+09;-7.311775685738037E-01;7.531122383860504E-02;-7.311775685738037E-01;7.531122383860504E-02;
1.178000000000000E+09;-7.282419470986480E-01;1.106082026824638E-01;-7.282419470986480E-01;1.106082026824638E-01;
1.190250000000000E+09;-7.235512277921705E-01;1.458320433022341E-01;-7.235512277921705E-01;1.458320433022341E-01;
1.202500000000000E+09;-7.168689497664362E-01;1.801756855141181E-01;-7.168689497664362E-01;1.801756855141181E-01;
1.214750000000000E+09;-7.091199796951102E-01;2.145822326644355E-01;-7.091199796951102E-01;2.145822326644355E-01;
1.227000000000000E+09;-6.998539242989554E-01;2.485438188365431E-01;-6.998539242989554E-01;2.485438188365431E-01;
1.239250000000000E+09;-6.885504651243135E-01;2.826604328889452E-01;-6.885504651243135E-01;2.826604328889452E-01;
1.251500000000000E+09;-6.757357353623064E-01;3.164667219065139E-01;-6.757357353623064E-01;3.164667219065139E-01;
1.263750000000000E+09;-6.607599233253251E-01;3.493752567428789E-01;-6.607599233253251E-01;3.493752567428789E-01;
1.276000000000000E+09;-6.438246419300458E-01;3.816821616803902E-01;-6.438246419300458E-01;3.816821616803902E-01;
1.288250000000000E+09;-6.249816069051576E-01;4.126580396172940E-01;-6.249816069051576E-01;4.126580396172940E-01;
1.300500000000000E+09;-6.048428028560527E-01;4.424027481762852E-01;-6.048428028560527E-01;4.424027481762852E-01;
1.312750000000000E+09;-5.838201288647594E-01;4.709889323586737E-01;-5.838201288647594E-01;4.709889323586737E-01;
1.325000000000000E+09;-5.614515563834569E-01;4.986210210216602E-01;-5.614515563834569E-01;4.986210210216602E-01;
1.337250000000000E+09;-5.380617541330884E-01;5.253225644167762E-01;-5.380617541330884E-01;5.253225644167762E-01;
1.349500000000000E+09;-5.133208702841660E-01;5.517142167160212E-01;-5.133208702841660E-01;5.517142167160212E-01;
1.361750000000000E+09;-4.865132224663282E-01;5.767971904186054E-01;-4.865132224663282E-01;5.767971904186054E-01;
1.374000000000000E+09;-4.580661857628452E-01;6.005883711938962E-01;-4.580661857628452E-01;6.005883711938962E-01;
1.386250000000000E+09;-4.282846738764381E-01;6.224172051833011E-01;-4.282846738764381E-01;6.224172051833011E-01;
1.398500000000000E+09;-3.975523998420021E-01;6.421929032852841E-01;-3.975523998420021E-01;6.421929032852841E-01;
1.410750000000000E+09;-3.663298029582713E-01;6.601453750170299E-01;-3.663298029582713E-01;6.601453750170299E-01;
1.423000000000000E+09;-3.346751448687419E-01;6.767947784053346E-01;-3.346751448687419E-01;6.767947784053346E-01;
1.435250000000000E+09;-3.027841883081445E-01;6.923030097480771E-01;-3.027841883081445E-01;6.923030097480771E-01;
1.447500000000000E+09;-2.695462779297315E-01;7.065453361222287E-01;-2.695462779297315E-01;7.065453361222287E-01;
1.459750000000000E+09;-2.353517434859637E-01;7.196696251119702E-01;-2.353517434859637E-01;7.196696251119702E-01;
1.472000000000000E+09;-2.002654344454642E-01;7.308618612598957E-01;-2.002654344454642E-01;7.308618612598957E-01;
1.484250000000000E+09;-1.640311928221362E-01;7.398878119387682E-01;-1.640311928221362E-01;7.398878119387682E-01;
1.496500000000000E+09;-1.277442348523834E-01;7.464536662380977E-01;-1.277442348523834E-01;7.464536662380977E-01;
1.508750000000000E+09;-9.150044024874676E-02;7.511068175266914E-01;-9.150044024874676E-02;7.511068175266914E-01;
1.521000000000000E+09;-5.556759665134178E-02;7.536906782469101E-01;-5.556759665134178E-02;7.536906782469101E-01;
1.533250000000000E+09;-1.961442521964291E-02;7.550815458055757E-01;-1.961442521964291E-02;7.550815458055757E-01;
1.545500000000000E+09;1.569311576132418E-02;7.553154037319884E-01;1.569311576132418E-02;7.553154037319884E-01;
1.557750000000000E+09;5.182609637579674E-02;7.539457451224159E-01;5.182609637579674E-02;7.539457451224159E-01;
1.570000000000000E+09;8.857717971992114E-02;7.510782249014647E-01;8.857717971992114E-02;7.510782249014647E-01;
1.582250000000000E+09;1.252343663477552E-01;7.458742794984350E-01;1.252343663477552E-01;7.458742794984350E-01;
1.594500000000000E+09;1.614403261857483E-01;7.382588607140199E-01;1.614403261857483E-01;7.382588607140199E-01;
1.606750000000000E+09;1.969352892687919E-01;7.284204371244618E-01;1.969352892687919E-01;7.284204371244618E-01;
1.619000000000000E+09;2.312134872946920E-01;7.170286901924567E-01;2.312134872946920E-01;7.170286901924567E-01;
1.631250000000000E+09;2.647898773802578E-01;7.045950497886972E-01;2.647898773802578E-01;7.045950497886972E-01;
1.643500000000000E+09;2.977649679268995E-01;6.910856230780209E-01;2.977649679268995E-01;6.910856230780209E-01;
1.655750000000000E+09;3.303432886427939E-01;6.759180703656826E-01;3.303432886427939E-01;6.759180703656826E-01;
1.668000000000000E+09;3.624546457634307E-01;6.593495388635698E-01;3.624546457634307E-01;6.593495388635698E-01;
1.680250000000000E+09;3.940253297296587E-01;6.407919207818060E-01;3.940253297296587E-01;6.407919207818060E-01;
1.692500000000000E+09;4.247524427706192E-01;6.202826533958181E-01;4.247524427706192E-01;6.202826533958181E-01;
1.704750000000000E+09;4.539220315934938E-01;5.981593707456161E-01;4.539220315934938E-01;5.981593707456161E-01;
1.717000000000000E+09;4.815141608887962E-01;5.744429627768570E-01;4.815141608887962E-01;5.744429627768570E-01;
1.729250000000000E+09;5.077275507105706E-01;5.500037541607536E-01;5.077275507105706E-01;5.500037541607536E-01;
1.741500000000000E+09;5.329495252127516E-01;5.245438636905559E-01;5.329495252127516E-01;5.245438636905559E-01;
1.753750000000000E+09;5.569292392378481E-01;4.982935451826399E-01;5.569292392378481E-01;4.982935451826399E-01;
1.766000000000000E+09;5.801327728201195E-01;4.709142093585946E-01;5.801327728201195E-01;4.709142093585946E-01;
1.778250000000000E+09;6.022609167990062E-01;4.421660216142969E-01;6.022609167990062E-01;4.421660216142969E-01;
1.790500000000000E+09;6.226348682860068E-01;4.120090933517400E-01;6.226348682860068E-01;4.120090933517400E-01;
1.802750000000000E+09;6.412790281441324E-01;3.805780264107513E-01;6.412790281441324E-01;3.805780264107513E-01;
1.815000000000000E+09;6.581781102671433E-01;3.483501168196096E-01;6.581781102671433E-01;3.483501168196096E-01;
1.827250000000000E+09;6.733206097245024E-01;3.155050636183278E-01;6.733206097245024E-01;3.155050636183278E-01;
1.839500000000000E+09;6.865517797666807E-01;2.822218599747961E-01;6.865517797666807E-01;2.822218599747961E-01;
1.851750000000000E+09;6.983118783526981E-01;2.488185965905366E-01;6.983118783526981E-01;2.488185965905366E-01;
1.864000000000000E+09;7.089023569364953E-01;2.150664144626767E-01;7.089023569364953E-01;2.150664144626767E-01;
1.876250000000000E+09;7.181680935168621E-01;1.809075254563817E-01;7.181680935168621E-01;1.809075254563817E-01;
1.888500000000000E+09;7.261428029925162E-01;1.458092647611113E-01;7.261428029925162E-01;1.458092647611113E-01;
1.900750000000000E+09;7.325762355829097E-01;1.100581797131995E-01;7.325762355829097E-01;1.100581797131995E-01;
1.913000000000000E+09;7.366434523581684E-01;7.331421066193175E-02;7.366434523581684E-01;7.331421066193175E-02;
1.925250000000000E+09;7.382115358478430E-01;3.655268254047518E-02;7.382115358478430E-01;3.655268254047518E-02;
1.937500000000000E+09;7.375991268806946E-01;1.480109809196043E-04;7.375991268806946E-01;1.480109809196043E-04;
1.949750000000000E+09;7.346660830150022E-01;-3.563789214244002E-02;7.346660830150022E-01;-3.563789214244002E-02;
1.962000000000000E+09;7.306380622983715E-01;-7.025050205913036E-02;7.306380622983715E-01;-7.025050205913036E-02;
1.974250000000000E+09;7.259781165208385E-01;-1.040840556950466E-01;7.259781165208385E-01;-1.040840556950466E-01;
1.986500000000000E+09;7.206790729538407E-01;-1.385749840968922E-01;7.206790729538407E-01;-1.385749840968922E-01;
1.998750000000000E+09;7.142116101445463E-01;-1.734465755651921E-01;7.142116101445463E-01;-1.734465755651921E-01;
2.011000000000000E+09;7.053980792305343E-01;-2.094927107372623E-01;7.053980792305343E-01;-2.094927107372623E-01;
2.023250000000000E+09;6.934265622425534E-01;-2.454144799746565E-01;6.934265622425534E-01;-2.454144799746565E-01;
2.035500000000000E+09;6.783658186717669E-01;-2.802379512141071E-01;6.783658186717669E-01;-2.802379512141071E-01;
2.047750000000000E+09;6.608170555772990E-01;-3.123740311848540E-01;6.608170555772990E-01;-3.123740311848540E-01;
2.060000000000000E+09;6.427658339191228E-01;-3.420003300194196E-01;6.427658339191228E-01;-3.420003300194196E-01;
2.072250000000000E+09;6.253278877112404E-01;-3.703695846149839E-01;6.253278877112404E-01;-3.703695846149839E-01;
2.084500000000000E+09;6.079802541771404E-01;-3.987948287917629E-01;6.079802541771404E-01;-3.987948287917629E-01;
2.096750000000000E+09;5.900948006219056E-01;-4.280949096935970E-01;5.900948006219056E-01;-4.280949096935970E-01;
2.109000000000000E+09;5.698666541169140E-01;-4.586932459254406E-01;5.698666541169140E-01;-4.586932459254406E-01;
2.121250000000000E+09;5.456364623805207E-01;-4.885368448928888E-01;5.456364623805207E-01;-4.885368448928888E-01;
2.133500000000000E+09;5.178596260979821E-01;-5.160771987770851E-01;5.178596260979821E-01;-5.160771987770851E-01;
2.145750000000000E+09;4.884408184397411E-01;-5.398035548282071E-01;4.884408184397411E-01;-5.398035548282071E-01;
2.158000000000000E+09;4.590699107190777E-01;-5.601108104877458E-01;4.590699107190777E-01;-5.601108104877458E-01;
2.170250000000000E+09;4.314506954241206E-01;-5.780001719951219E-01;4.314506954241206E-01;-5.780001719951219E-01;
2.182500000000000E+09;4.051871448792401E-01;-5.961171487613105E-01;4.051871448792401E-01;-5.961171487613105E-01;
2.194750000000000E+09;3.788197983147071E-01;-6.158787533919111E-01;3.788197983147071E-01;-6.158787533919111E-01;
2.207000000000000E+09;3.497615233971449E-01;-6.365557365644594E-01;3.497615233971449E-01;-6.365557365644594E-01;
2.219250000000000E+09;3.168350192955067E-01;-6.564004378402267E-01;3.168350192955067E-01;-6.564004378402267E-01;
2.231500000000000E+09;2.805148193412710E-01;-6.729398371328335E-01;2.805148193412710E-01;-6.729398371328335E-01;
